Circuit: *** SPICE deck for cell simple_CS{sch} from library CurrentMirror

Direct Newton iteration for .op point succeeded.
Semiconductor Device Operating Points:
                        --- BSIM4 MOSFETS ---
Name:    mnmos@0
Model:    nmos
Id:      1.76e-04
Vgs:     4.00e-01
Vds:     1.20e+00
Vbs:     0.00e+00
Vth:     2.95e-01
Vdsat:   9.38e-02
Gm:      1.60e-03
Gds:     2.03e-04
Gmb      4.43e-04
Cbd:     5.01e-16
Cbs:     1.04e-15



Date: Fri Aug 07 15:11:54 2020
Total elapsed time: 1.979 seconds.

tnom = 27
temp = 27
method = trap
totiter = 5
traniter = 0
tranpoints = 0
accept = 0
rejected = 0
matrix size = 9
fillins = 0
solver = Normal
Matrix Compiler1: 492 bytes object code size
Matrix Compiler2: 735 bytes object code size
