Circuit: *** SPICE deck for cell Wilson_CM{sch} from library CurrentMirror

Warning: toxe, toxp and dtox all given and toxe != toxp + dtox; dtox ignored.
.step i=1e-005
Direct Newton iteration for .op point succeeded.
Semiconductor Device Operating Points:
                        --- BSIM4 MOSFETS ---
Name:    mnmos@1     mnmos@0
Model:    nmos        nmos
Id:      1.00e-05    2.63e-05
Vgs:     3.57e-01    3.57e-01
Vds:     3.57e-01    1.20e+00
Vbs:     0.00e+00    0.00e+00
Vth:     3.65e-01    3.07e-01
Vdsat:   5.92e-02    7.63e-02
Gm:      1.71e-04    3.47e-04
Gds:     1.33e-05    2.61e-05
Gmb      4.64e-05    9.38e-05
Cbd:     2.94e-16    2.51e-16
Cbs:     5.20e-16    5.20e-16


.step i=2e-005
.step i=3e-005
.step i=4e-005
.step i=5e-005
.step i=6e-005
.step i=7e-005
.step i=8e-005
.step i=9e-005
.step i=0.0001
.step i=0.00011
.step i=0.00012
.step i=0.00013
.step i=0.00014
.step i=0.00015
.step i=0.00016
.step i=0.00017
.step i=0.00018
.step i=0.00019
.step i=0.0002

Date: Fri Aug 07 16:40:29 2020
Total elapsed time: 4.153 seconds.

tnom = 27
temp = 27
method = trap
totiter = 4
traniter = 0
tranpoints = 0
accept = 0
rejected = 0
matrix size = 12
fillins = 0
solver = Normal
Matrix Compiler1: 1018 bytes object code size
Matrix Compiler2: 1.01 KB object code size
